
T099C 000:627 SEGGER J-Link V4.90 Log File (0003ms, 0327ms total)
T099C 000:627 DLL Compiled: Jul 28 2014 10:35:20 (0004ms, 0328ms total)
T099C 000:627 Logging started @ 2015-07-17 17:45 (0004ms, 0328ms total)
T099C 000:631 JLINK_SetWarnOutHandler(...) (0000ms, 0328ms total)
T099C 000:631 JLINK_OpenEx(...)
Firmware: J-Link ARM V8 compiled Jul 17 2014 12:31:18
Hardware: V8.00
Feature(s): RDI,FlashDL,FlashBP,JFlash,GDBFULL  returns O.K. (0293ms, 0621ms total)
T099C 000:924 JLINK_SetErrorOutHandler(...) (0000ms, 0621ms total)
T099C 000:925 JLINK_ExecCommand("ProjectFile = "E:\workspace_git\embedded\feedfish\JLinkSettings.ini"", ...)  returns 0x00 (0004ms, 0626ms total)
T099C 000:929 JLINK_ExecCommand("Device = LPC1756", ...)Device "LPC1756" selected (256 KB flash, 16 KB RAM).  returns 0x00 (0001ms, 0628ms total)
T099C 000:931 JLINK_ExecCommand("DisableConnectionTimeout", ...)  returns 0x01 (0000ms, 0628ms total)
T099C 000:931 JLINK_GetHardwareVersion()  returns 0x13880 (0001ms, 0629ms total)
T099C 000:932 JLINK_GetDLLVersion()  returns 49000 (0000ms, 0629ms total)
T099C 000:932 JLINK_GetFirmwareString(...) (0000ms, 0629ms total)
T099C 000:933 JLINK_GetDLLVersion()  returns 49000 (0000ms, 0629ms total)
T099C 000:933 JLINK_GetCompileDateTime() (0000ms, 0629ms total)
T099C 000:934 JLINK_GetFirmwareString(...) (0000ms, 0629ms total)
T099C 000:934 JLINK_GetHardwareVersion()  returns 0x13880 (0000ms, 0629ms total)
T099C 000:935 JLINK_TIF_Select(JLINKARM_TIF_JTAG)  returns 0x00 (0014ms, 0643ms total)
T099C 000:949 JLINK_SetSpeed(1000) (0003ms, 0646ms total)
T099C 000:952 JLINK_GetIdData(...) >0x2F8 JTAG>TotalIRLen = 4, IRPrint = 0x01 >0x30 JTAG> >0x210 JTAG> >0x70 JTAG> >0x40 JTAG> >0x40 JTAG> >0x40 JTAG> >0x48 JTAG> >0x78 JTAG> >0x40 JTAG> >0x30 JTAG> >0x40 JTAG> >0x40 JTAG> >0x30 JTAG> >0x40 JTAG> >0x48 JTAG>Found Cortex-M3 r2p0, Little endian. -- CPU_WriteMem(4 bytes @ 0xE0002000) -- CPU_ReadMem(4 bytes @ 0xE000EDF0) -- CPU_ReadMem(4 bytes @ 0xE0002000)FPUnit: 6 code (BP) slots and 2 literal slots -- CPU_ReadMem(4 bytes @ 0xE000EDFC)
 -- CPU_ReadMem(4 bytes @ 0xE0001000) -- CPU_WriteMem(4 bytes @ 0xE0001000) -- CPU_ReadMem(4 bytes @ 0xE00FF010)TPIU fitted. -- CPU_ReadMem(4 bytes @ 0xE00FF014)ETM fitted. -- CPU_ReadMem(4 bytes @ 0xE00FF018) ScanLen=4 NumDevices=1 aId[0]=0x4BA00477 aIrRead[0]=0 aScanLen[0]=0 aScanRead[0]=0 (0086ms, 0732ms total)
T099C 001:038 JLINK_JTAG_GetDeviceID(DeviceIndex = 0)  returns 0x4BA00477 (0000ms, 0732ms total)
T099C 001:038 JLINK_JTAG_GetDeviceInfo(DeviceIndex = 0)  returns 0x00 (0001ms, 0733ms total)
T099C 001:039 JLINK_GetDeviceFamily()  returns 3 (0000ms, 0733ms total)
T099C 001:040 JLINK_ReadMem (0xE00FFFF0, 0x0010 Bytes, ...) -- CPU is running -- CPU_ReadMem(16 bytes @ 0xE00FFFF0) - Data: 0D 00 00 00 10 00 00 00 05 00 00 00 B1 00 00 00  returns 0x00 (0005ms, 0738ms total)
T099C 001:045 JLINK_ReadMem (0xE00FFFD0, 0x0020 Bytes, ...) -- CPU is running -- CPU_ReadMem(32 bytes @ 0xE00FFFD0) - Data: 00 00 00 00 00 00 00 00 00 00 00 00 00 00 00 00 ...  returns 0x00 (0006ms, 0744ms total)
T099C 001:051 JLINK_ReadMem (0xE00FF000, 0x0018 Bytes, ...) -- CPU is running -- CPU_ReadMem(24 bytes @ 0xE00FF000) - Data: 03 F0 F0 FF 03 20 F0 FF 03 30 F0 FF 03 10 F0 FF ...  returns 0x00 (0005ms, 0749ms total)
T099C 001:056 JLINK_ReadMemU32(0xE000ED00, 0x0001 Items, ...) -- CPU is running -- CPU_ReadMem(4 bytes @ 0xE000ED00) - Data: 30 C2 2F 41  returns 0x01 (0006ms, 0755ms total)
T099C 001:062 JLINK_SetResetType(JLINKARM_RESET_TYPE_NORMAL)  returns JLINKARM_RESET_TYPE_HALT_WP (0000ms, 0755ms total)
T099C 001:063 JLINK_Reset() -- CPU is running -- CPU_WriteMem(4 bytes @ 0xE000EDF0) -- CPU is running -- CPU_WriteMem(4 bytes @ 0xE000EDFC) -- CPU is running -- CPU_WriteMem(4 bytes @ 0xE000ED0C) -- CPU is running -- CPU_ReadMem(4 bytes @ 0xE000EDF0) -- CPU is running -- CPU_ReadMem(4 bytes @ 0xE000EDF0) -- CPU is running -- CPU_WriteMem(4 bytes @ 0xE000EDF0) -- CPU is running -- CPU_WriteMem(4 bytes @ 0xE000EDFC) -- CPU is running -- CPU_ReadMem(4 bytes @ 0xE000EDF0) >0x78 JTAG> >0x40 JTAG> >0x30 JTAG>
 >0x40 JTAG> >0x48 JTAG> >0x40 JTAG> -- CPU_WriteMem(4 bytes @ 0xE000EDFC) -- CPU_WriteMem(4 bytes @ 0xE0001028) -- CPU_WriteMem(4 bytes @ 0xE0001038) -- CPU_WriteMem(4 bytes @ 0xE0001048) -- CPU_WriteMem(4 bytes @ 0xE0001058) -- CPU_WriteMem(4 bytes @ 0xE000EDFC) -- CPU_WriteMem(4 bytes @ 0xE0001028) -- CPU_WriteMem(4 bytes @ 0xE0001028) -- CPU_WriteMem(4 bytes @ 0xE000EDFC) -- CPU_WriteMem(4 bytes @ 0xE0001028) -- CPU_WriteMem(4 bytes @ 0xE0001028) -- CPU_WriteMem(4 bytes @ 0xE000EDFC)
 -- CPU_WriteMem(4 bytes @ 0xE0001028) -- CPU_WriteMem(4 bytes @ 0xE0001028) -- CPU_WriteMem(4 bytes @ 0xE000EDFC) -- CPU_WriteMem(4 bytes @ 0xE0001028) -- CPU_WriteMem(4 bytes @ 0xE0001028) -- CPU_WriteMem(4 bytes @ 0xE000EDFC) -- CPU_WriteMem(4 bytes @ 0xE0001050) -- CPU_WriteMem(4 bytes @ 0xE0001054) -- CPU_WriteMem(4 bytes @ 0xE0001058) -- CPU_WriteMem(4 bytes @ 0xE000EDFC) -- CPU_WriteMem(4 bytes @ 0xE0001058) -- CPU_ReadMem(4 bytes @ 0x00000004) -- CPU_ReadMem(4 bytes @ 0xE0002000)
 -- CPU_ReadMem(4 bytes @ 0xE0002008) -- CPU_ReadMem(4 bytes @ 0xE000200C) -- CPU_ReadMem(4 bytes @ 0xE0002010) -- CPU_ReadMem(4 bytes @ 0xE0002014) -- CPU_ReadMem(4 bytes @ 0xE0002018) -- CPU_ReadMem(4 bytes @ 0xE000201C) -- CPU_WriteMem(4 bytes @ 0xE0002000) -- CPU_WriteMem(4 bytes @ 0xE0002008) -- CPU_WriteMem(4 bytes @ 0xE000200C) -- CPU_WriteMem(4 bytes @ 0xE0002010) -- CPU_WriteMem(4 bytes @ 0xE0002014) -- CPU_WriteMem(4 bytes @ 0xE0002018) -- CPU_WriteMem(4 bytes @ 0xE000201C)
 -- CPU_ReadMem(4 bytes @ 0x400FC040) -- CPU_WriteMem(4 bytes @ 0xE0002000) -- CPU_WriteMem(4 bytes @ 0xE0002008) -- CPU_WriteMem(4 bytes @ 0xE000200C) -- CPU_WriteMem(4 bytes @ 0xE0002010) -- CPU_WriteMem(4 bytes @ 0xE0002014) -- CPU_WriteMem(4 bytes @ 0xE0002018) -- CPU_WriteMem(4 bytes @ 0xE000201C) -- CPU_WriteMem(4 bytes @ 0xE0002000) -- CPU_ReadMem(4 bytes @ 0xE000EDFC) -- CPU_ReadMem(4 bytes @ 0xE0001000) (0453ms, 1209ms total)
T099C 001:516 JLINK_ReadReg(R15 (PC))  returns 0x000002BC (0001ms, 1210ms total)
T099C 001:517 JLINK_ReadReg(XPSR)  returns 0x61000000 (0000ms, 1210ms total)
T099C 001:517 JLINK_Halt()  returns 0x00 (0001ms, 1211ms total)
T099C 001:518 JLINK_IsHalted()  returns TRUE (0001ms, 1212ms total)
T099C 001:519 JLINK_ReadMemU32(0xE000EDF0, 0x0001 Items, ...) -- CPU_ReadMem(4 bytes @ 0xE000EDF0) - Data: 03 00 03 00  returns 0x01 (0005ms, 1216ms total)
T099C 001:524 JLINK_WriteU32(0xE000EDF0, 0xA05F0003) -- CPU_WriteMem(4 bytes @ 0xE000EDF0)  returns 0x00 (0001ms, 1217ms total)
T099C 001:526 JLINK_WriteU32(0xE000EDFC, 0x01000000) -- CPU_WriteMem(4 bytes @ 0xE000EDFC)  returns 0x00 (0003ms, 1221ms total)
T099C 001:529 JLINK_GetHWStatus(...)  returns 0x00 (0004ms, 1225ms total)
T099C 001:533 JLINK_GetNumBPUnits(Type = 0xFFFFFF00)  returns 0x06 (0001ms, 1226ms total)
T099C 001:535 JLINK_GetNumBPUnits(Type = 0xF0)  returns 0x2000 (0000ms, 1227ms total)
T099C 001:535 JLINK_GetNumWPUnits()  returns 0x04 (0000ms, 1227ms total)
T099C 001:535 JLINK_GetSpeed()  returns 0x3E8 (0001ms, 1228ms total)
T099C 001:536 JLINK_ReadMemU32(0xE000E004, 0x0001 Items, ...) -- CPU_ReadMem(4 bytes @ 0xE000E004) - Data: 01 00 00 00  returns 0x01 (0005ms, 1233ms total)
T099C 001:541 JLINK_ReadMemU32(0xE000E004, 0x0001 Items, ...) -- CPU_ReadMem(4 bytes @ 0xE000E004) - Data: 01 00 00 00  returns 0x01 (0003ms, 1236ms total)
T099C 001:544 JLINK_WriteMem(0xE0001000, 0x001C Bytes, ...) - Data: 01 00 00 00 00 00 00 00 00 00 00 00 00 00 00 00 ... -- CPU_WriteMem(28 bytes @ 0xE0001000)  returns 0x1C (0004ms, 1240ms total)
T099C 001:549 JLINK_ReadMem (0xE0001000, 0x001C Bytes, ...) -- CPU_ReadMem(28 bytes @ 0xE0001000) - Data: 01 00 00 40 00 00 00 00 00 00 00 00 00 00 00 00 ...  returns 0x00 (0005ms, 1246ms total)
T099C 001:554 JLINK_ReadReg(R15 (PC))  returns 0x000002BC (0001ms, 1247ms total)
T099C 001:555 JLINK_ReadReg(XPSR)  returns 0x61000000 (0000ms, 1247ms total)
T099C 001:560 JLINK_WriteU8(0x400FC040, 0x01) -- CPU_WriteMem(1 bytes @ 0x400FC040)  returns 0x00 (0002ms, 1249ms total)
T099C 001:629 JLINK_SetResetType(JLINKARM_RESET_TYPE_NORMAL)  returns JLINKARM_RESET_TYPE_HALT_WP (0001ms, 1250ms total)
T099C 001:630 JLINK_Reset() -- CPU_WriteMem(4 bytes @ 0xE000EDF0) -- CPU_WriteMem(4 bytes @ 0xE000EDFC) -- CPU_WriteMem(4 bytes @ 0xE000ED0C) -- CPU_ReadMem(4 bytes @ 0xE000EDF0) -- CPU_ReadMem(4 bytes @ 0xE000EDF0) -- CPU_WriteMem(4 bytes @ 0xE000EDF0) -- CPU_WriteMem(4 bytes @ 0xE000EDFC) -- CPU is running -- CPU_ReadMem(4 bytes @ 0xE000EDF0) >0x78 JTAG> >0x40 JTAG> >0x30 JTAG> >0x40 JTAG> >0x48 JTAG> >0x40 JTAG> -- CPU_WriteMem(4 bytes @ 0xE000EDFC) -- CPU_WriteMem(4 bytes @ 0xE0001028)
 -- CPU_WriteMem(4 bytes @ 0xE0001038) -- CPU_WriteMem(4 bytes @ 0xE0001048) -- CPU_WriteMem(4 bytes @ 0xE0001058) -- CPU_WriteMem(4 bytes @ 0xE000EDFC) -- CPU_WriteMem(4 bytes @ 0xE000EDFC) -- CPU_WriteMem(4 bytes @ 0xE000EDFC) -- CPU_WriteMem(4 bytes @ 0xE000EDFC) -- CPU_WriteMem(4 bytes @ 0xE000EDFC) -- CPU_WriteMem(4 bytes @ 0xE0001050) -- CPU_WriteMem(4 bytes @ 0xE0001054) -- CPU_WriteMem(4 bytes @ 0xE0001058) -- CPU_WriteMem(4 bytes @ 0xE000EDFC) -- CPU_WriteMem(4 bytes @ 0xE0001058)
 -- CPU_ReadMem(4 bytes @ 0x00000004) -- CPU_ReadMem(4 bytes @ 0xE0002000) -- CPU_ReadMem(4 bytes @ 0xE0002008) -- CPU_ReadMem(4 bytes @ 0xE000200C) -- CPU_ReadMem(4 bytes @ 0xE0002010) -- CPU_ReadMem(4 bytes @ 0xE0002014) -- CPU_ReadMem(4 bytes @ 0xE0002018) -- CPU_ReadMem(4 bytes @ 0xE000201C) -- CPU_WriteMem(4 bytes @ 0xE0002000) -- CPU_WriteMem(4 bytes @ 0xE0002008) -- CPU_WriteMem(4 bytes @ 0xE000200C) -- CPU_WriteMem(4 bytes @ 0xE0002010) -- CPU_WriteMem(4 bytes @ 0xE0002014)
 -- CPU_WriteMem(4 bytes @ 0xE0002018) -- CPU_WriteMem(4 bytes @ 0xE000201C) -- CPU_ReadMem(4 bytes @ 0x400FC040) -- CPU_WriteMem(4 bytes @ 0xE0002000) -- CPU_WriteMem(4 bytes @ 0xE0002008) -- CPU_WriteMem(4 bytes @ 0xE000200C) -- CPU_WriteMem(4 bytes @ 0xE0002010) -- CPU_WriteMem(4 bytes @ 0xE0002014) -- CPU_WriteMem(4 bytes @ 0xE0002018) -- CPU_WriteMem(4 bytes @ 0xE000201C) -- CPU_WriteMem(4 bytes @ 0xE0002000) -- CPU_ReadMem(4 bytes @ 0xE000EDFC) -- CPU_ReadMem(4 bytes @ 0xE0001000)
 (0454ms, 1704ms total)
T099C 002:090 JLINK_ReadReg(R15 (PC))  returns 0x000002BC (0003ms, 1709ms total)
T099C 002:093 JLINK_ReadReg(XPSR)  returns 0x61000000 (0001ms, 1710ms total)
T099C 002:095 JLINK_ReadMem (0x000002BC, 0x003C Bytes, ...) -- CPU_ReadMem(128 bytes @ 0x00000280) -- Updating C cache (128 bytes @ 0x00000280) -- Read from C cache (60 bytes @ 0x000002BC) - Data: 09 48 80 47 09 48 00 47 FE E7 FE E7 FE E7 FE E7 ...  returns 0x00 (0009ms, 1719ms total)
T099C 002:244 JLINK_ReadMem (0x50004000, 0x0004 Bytes, ...) -- CPU_ReadMem(4 bytes @ 0x50004000) - Data: 00 00 00 00  returns 0x00 (0008ms, 1727ms total)
T099C 002:252 JLINK_ReadMem (0x50004004, 0x0004 Bytes, ...) -- CPU_ReadMem(4 bytes @ 0x50004004) - Data: 00 00 00 00  returns 0x00 (0006ms, 1733ms total)
T099C 002:258 JLINK_ReadMem (0x5000400C, 0x0004 Bytes, ...) -- CPU_ReadMem(4 bytes @ 0x5000400C) - Data: 00 00 00 00  returns 0x00 (0003ms, 1736ms total)
T099C 002:262 JLINK_ReadMem (0x50004014, 0x0008 Bytes, ...) -- CPU_ReadMem(8 bytes @ 0x50004014) - Data: 00 00 00 00 00 00 00 00  returns 0x00 (0003ms, 1740ms total)
T099C 002:265 JLINK_ReadMem (0x5000401C, 0x0004 Bytes, ...) -- CPU_ReadMem(4 bytes @ 0x5000401C) - Data: 00 00 00 00  returns 0x00 (0004ms, 1744ms total)
T099C 002:269 JLINK_ReadMem (0x50004020, 0x0014 Bytes, ...) -- CPU_ReadMem(20 bytes @ 0x50004020) - Data: 00 00 00 00 00 00 00 00 00 00 00 00 00 00 00 00 ...  returns 0x00 (0005ms, 1749ms total)
T099C 002:274 JLINK_ReadMem (0x50004034, 0x0004 Bytes, ...) -- CPU_ReadMem(4 bytes @ 0x50004034) - Data: 00 00 00 00  returns 0x00 (0004ms, 1753ms total)
T099C 002:278 JLINK_ReadMem (0x50004100, 0x0004 Bytes, ...) -- CPU_ReadMem(4 bytes @ 0x50004100) - Data: 00 00 00 00  returns 0x00 (0004ms, 1757ms total)
T099C 002:282 JLINK_ReadMem (0x50004104, 0x0004 Bytes, ...) -- CPU_ReadMem(4 bytes @ 0x50004104) - Data: 00 00 00 00  returns 0x00 (0005ms, 1762ms total)
T099C 002:287 JLINK_ReadMem (0x50004108, 0x0004 Bytes, ...) -- CPU_ReadMem(4 bytes @ 0x50004108) - Data: 00 00 00 00  returns 0x00 (0008ms, 1770ms total)
T099C 002:295 JLINK_ReadMem (0x5000410C, 0x0004 Bytes, ...) -- CPU_ReadMem(4 bytes @ 0x5000410C) - Data: 00 00 00 00  returns 0x00 (0004ms, 1774ms total)
T099C 002:299 JLINK_ReadMem (0x50004110, 0x0004 Bytes, ...) -- CPU_ReadMem(4 bytes @ 0x50004110) - Data: 00 00 00 00  returns 0x00 (0004ms, 1778ms total)
T099C 002:303 JLINK_ReadMem (0x50004120, 0x0004 Bytes, ...) -- CPU_ReadMem(4 bytes @ 0x50004120) - Data: 00 00 00 00  returns 0x00 (0005ms, 1783ms total)
T099C 002:308 JLINK_ReadMem (0x50004124, 0x0004 Bytes, ...) -- CPU_ReadMem(4 bytes @ 0x50004124) - Data: 00 00 00 00  returns 0x00 (0004ms, 1787ms total)
T099C 002:312 JLINK_ReadMem (0x50004128, 0x0004 Bytes, ...) -- CPU_ReadMem(4 bytes @ 0x50004128) - Data: 00 00 00 00  returns 0x00 (0003ms, 1790ms total)
T099C 002:315 JLINK_ReadMem (0x5000412C, 0x0004 Bytes, ...) -- CPU_ReadMem(4 bytes @ 0x5000412C) - Data: 00 00 00 00  returns 0x00 (0003ms, 1793ms total)
T099C 002:319 JLINK_ReadMem (0x50004130, 0x0004 Bytes, ...) -- CPU_ReadMem(4 bytes @ 0x50004130) - Data: 00 00 00 00  returns 0x00 (0003ms, 1797ms total)
T099C 002:322 JLINK_ReadMem (0x50004140, 0x0004 Bytes, ...) -- CPU_ReadMem(4 bytes @ 0x50004140) - Data: 00 00 00 00  returns 0x00 (0005ms, 1802ms total)
T099C 002:328 JLINK_ReadMem (0x50004144, 0x0004 Bytes, ...) -- CPU_ReadMem(4 bytes @ 0x50004144) - Data: 00 00 00 00  returns 0x00 (0003ms, 1806ms total)
T099C 002:331 JLINK_ReadMem (0x50004148, 0x0004 Bytes, ...) -- CPU_ReadMem(4 bytes @ 0x50004148) - Data: 00 00 00 00  returns 0x00 (0004ms, 1810ms total)
T099C 002:335 JLINK_ReadMem (0x5000414C, 0x0004 Bytes, ...) -- CPU_ReadMem(4 bytes @ 0x5000414C) - Data: 00 00 00 00  returns 0x00 (0004ms, 1814ms total)
T099C 002:339 JLINK_ReadMem (0x50004150, 0x0004 Bytes, ...) -- CPU_ReadMem(4 bytes @ 0x50004150) - Data: 00 00 00 00  returns 0x00 (0005ms, 1819ms total)
T099C 002:344 JLINK_ReadMem (0x50004160, 0x0004 Bytes, ...) -- CPU_ReadMem(4 bytes @ 0x50004160) - Data: 00 00 00 00  returns 0x00 (0005ms, 1824ms total)
T099C 002:349 JLINK_ReadMem (0x50004164, 0x0004 Bytes, ...) -- CPU_ReadMem(4 bytes @ 0x50004164) - Data: 00 00 00 00  returns 0x00 (0005ms, 1829ms total)
T099C 002:354 JLINK_ReadMem (0x50004168, 0x0004 Bytes, ...) -- CPU_ReadMem(4 bytes @ 0x50004168) - Data: 00 00 00 00  returns 0x00 (0004ms, 1833ms total)
T099C 002:358 JLINK_ReadMem (0x5000416C, 0x0004 Bytes, ...) -- CPU_ReadMem(4 bytes @ 0x5000416C) - Data: 00 00 00 00  returns 0x00 (0004ms, 1837ms total)
T099C 002:362 JLINK_ReadMem (0x50004170, 0x0004 Bytes, ...) -- CPU_ReadMem(4 bytes @ 0x50004170) - Data: 00 00 00 00  returns 0x00 (0005ms, 1842ms total)
T099C 002:367 JLINK_ReadMem (0x50004180, 0x0004 Bytes, ...) -- CPU_ReadMem(4 bytes @ 0x50004180) - Data: 00 00 00 00  returns 0x00 (0005ms, 1847ms total)
T099C 002:373 JLINK_ReadMem (0x50004184, 0x0004 Bytes, ...) -- CPU_ReadMem(4 bytes @ 0x50004184) - Data: 00 00 00 00  returns 0x00 (0007ms, 1855ms total)
T099C 002:380 JLINK_ReadMem (0x50004188, 0x0004 Bytes, ...) -- CPU_ReadMem(4 bytes @ 0x50004188) - Data: 00 00 00 00  returns 0x00 (0004ms, 1859ms total)
T099C 002:384 JLINK_ReadMem (0x5000418C, 0x0004 Bytes, ...) -- CPU_ReadMem(4 bytes @ 0x5000418C) - Data: 00 00 00 00  returns 0x00 (0004ms, 1863ms total)
T099C 002:389 JLINK_ReadMem (0x50004190, 0x0004 Bytes, ...) -- CPU_ReadMem(4 bytes @ 0x50004190) - Data: 00 00 00 00  returns 0x00 (0005ms, 1869ms total)
T099C 002:394 JLINK_ReadMem (0x500041A0, 0x0004 Bytes, ...) -- CPU_ReadMem(4 bytes @ 0x500041A0) - Data: 00 00 00 00  returns 0x00 (0004ms, 1873ms total)
T099C 002:398 JLINK_ReadMem (0x500041A4, 0x0004 Bytes, ...) -- CPU_ReadMem(4 bytes @ 0x500041A4) - Data: 00 00 00 00  returns 0x00 (0003ms, 1876ms total)
T099C 002:401 JLINK_ReadMem (0x500041A8, 0x0004 Bytes, ...) -- CPU_ReadMem(4 bytes @ 0x500041A8) - Data: 00 00 00 00  returns 0x00 (0004ms, 1880ms total)
T099C 002:406 JLINK_ReadMem (0x500041AC, 0x0004 Bytes, ...) -- CPU_ReadMem(4 bytes @ 0x500041AC) - Data: 00 00 00 00  returns 0x00 (0005ms, 1886ms total)
T099C 002:411 JLINK_ReadMem (0x500041B0, 0x0004 Bytes, ...) -- CPU_ReadMem(4 bytes @ 0x500041B0) - Data: 00 00 00 00  returns 0x00 (0004ms, 1890ms total)
T099C 002:415 JLINK_ReadMem (0x500041C0, 0x0004 Bytes, ...) -- CPU_ReadMem(4 bytes @ 0x500041C0) - Data: 00 00 00 00  returns 0x00 (0005ms, 1895ms total)
T099C 002:420 JLINK_ReadMem (0x500041C4, 0x0004 Bytes, ...) -- CPU_ReadMem(4 bytes @ 0x500041C4) - Data: 00 00 00 00  returns 0x00 (0003ms, 1898ms total)
T099C 002:423 JLINK_ReadMem (0x500041C8, 0x0004 Bytes, ...) -- CPU_ReadMem(4 bytes @ 0x500041C8) - Data: 00 00 00 00  returns 0x00 (0005ms, 1903ms total)
T099C 002:428 JLINK_ReadMem (0x500041CC, 0x0004 Bytes, ...) -- CPU_ReadMem(4 bytes @ 0x500041CC) - Data: 00 00 00 00  returns 0x00 (0003ms, 1906ms total)
T099C 002:432 JLINK_ReadMem (0x500041D0, 0x0004 Bytes, ...) -- CPU_ReadMem(4 bytes @ 0x500041D0) - Data: 00 00 00 00  returns 0x00 (0004ms, 1911ms total)
T099C 002:436 JLINK_ReadMem (0x500041E0, 0x0004 Bytes, ...) -- CPU_ReadMem(4 bytes @ 0x500041E0) - Data: 00 00 00 00  returns 0x00 (0004ms, 1915ms total)
T099C 002:440 JLINK_ReadMem (0x500041E4, 0x0004 Bytes, ...) -- CPU_ReadMem(4 bytes @ 0x500041E4) - Data: 00 00 00 00  returns 0x00 (0002ms, 1917ms total)
T099C 002:442 JLINK_ReadMem (0x500041E8, 0x0004 Bytes, ...) -- CPU_ReadMem(4 bytes @ 0x500041E8) - Data: 00 00 00 00  returns 0x00 (0005ms, 1922ms total)
T099C 002:447 JLINK_ReadMem (0x500041EC, 0x0004 Bytes, ...) -- CPU_ReadMem(4 bytes @ 0x500041EC) - Data: 00 00 00 00  returns 0x00 (0003ms, 1925ms total)
T099C 002:451 JLINK_ReadMem (0x500041F0, 0x0004 Bytes, ...) -- CPU_ReadMem(4 bytes @ 0x500041F0) - Data: 00 00 00 00  returns 0x00 (0003ms, 1929ms total)
T099C 002:490 JLINK_ReadMem (0x2009C000, 0x0004 Bytes, ...) -- CPU_ReadMem(4 bytes @ 0x2009C000) - Data: 00 00 00 00  returns 0x00 (0008ms, 1937ms total)
T099C 002:498 JLINK_ReadMem (0x2009C010, 0x0004 Bytes, ...) -- CPU_ReadMem(4 bytes @ 0x2009C010) - Data: 00 00 00 00  returns 0x00 (0006ms, 1943ms total)
T099C 002:504 JLINK_ReadMem (0x2009C014, 0x0004 Bytes, ...) -- CPU_ReadMem(4 bytes @ 0x2009C014) - Data: FF 8F FF 07  returns 0x00 (0005ms, 1948ms total)
T099C 002:509 JLINK_ReadMem (0x2009C018, 0x0004 Bytes, ...) -- CPU_ReadMem(4 bytes @ 0x2009C018) - Data: 00 00 00 00  returns 0x00 (0004ms, 1952ms total)
T099C 002:513 JLINK_ReadMem (0x2009C020, 0x0004 Bytes, ...) -- CPU_ReadMem(4 bytes @ 0x2009C020) - Data: 00 00 00 00  returns 0x00 (0004ms, 1956ms total)
T099C 002:518 JLINK_ReadMem (0x2009C030, 0x0004 Bytes, ...) -- CPU_ReadMem(4 bytes @ 0x2009C030) - Data: 00 00 00 00  returns 0x00 (0003ms, 1960ms total)
T099C 002:521 JLINK_ReadMem (0x2009C034, 0x0004 Bytes, ...) -- CPU_ReadMem(4 bytes @ 0x2009C034) - Data: 13 C7 FF FF  returns 0x00 (0004ms, 1964ms total)
T099C 002:525 JLINK_ReadMem (0x2009C038, 0x0004 Bytes, ...) -- CPU_ReadMem(4 bytes @ 0x2009C038) - Data: 00 00 00 00  returns 0x00 (0002ms, 1966ms total)
T099C 002:527 JLINK_ReadMem (0x2009C040, 0x0004 Bytes, ...) -- CPU_ReadMem(4 bytes @ 0x2009C040) - Data: 00 00 00 00  returns 0x00 (0005ms, 1971ms total)
T099C 002:532 JLINK_ReadMem (0x2009C050, 0x0004 Bytes, ...) -- CPU_ReadMem(4 bytes @ 0x2009C050) - Data: 00 00 00 00  returns 0x00 (0004ms, 1975ms total)
T099C 002:536 JLINK_ReadMem (0x2009C054, 0x0004 Bytes, ...) -- CPU_ReadMem(4 bytes @ 0x2009C054) - Data: FF 3F 00 00  returns 0x00 (0004ms, 1979ms total)
T099C 002:540 JLINK_ReadMem (0x2009C058, 0x0004 Bytes, ...) -- CPU_ReadMem(4 bytes @ 0x2009C058) - Data: 00 00 00 00  returns 0x00 (0003ms, 1982ms total)
T099C 002:543 JLINK_ReadMem (0x2009C060, 0x0004 Bytes, ...) -- CPU_ReadMem(4 bytes @ 0x2009C060) - Data: 00 00 00 00  returns 0x00 (0004ms, 1986ms total)
T099C 002:547 JLINK_ReadMem (0x2009C070, 0x0004 Bytes, ...) -- CPU_ReadMem(4 bytes @ 0x2009C070) - Data: 00 00 00 00  returns 0x00 (0005ms, 1991ms total)
T099C 002:552 JLINK_ReadMem (0x2009C074, 0x0004 Bytes, ...) -- CPU_ReadMem(4 bytes @ 0x2009C074) - Data: 00 00 00 06  returns 0x00 (0003ms, 1994ms total)
T099C 002:555 JLINK_ReadMem (0x2009C078, 0x0004 Bytes, ...) -- CPU_ReadMem(4 bytes @ 0x2009C078) - Data: 00 00 00 00  returns 0x00 (0005ms, 1999ms total)
T099C 002:560 JLINK_ReadMem (0x2009C080, 0x0004 Bytes, ...) -- CPU_ReadMem(4 bytes @ 0x2009C080) - Data: 00 00 00 00  returns 0x00 (0004ms, 2003ms total)
T099C 002:564 JLINK_ReadMem (0x2009C090, 0x0004 Bytes, ...) -- CPU_ReadMem(4 bytes @ 0x2009C090) - Data: 00 00 00 00  returns 0x00 (0003ms, 2006ms total)
T099C 002:567 JLINK_ReadMem (0x2009C094, 0x0004 Bytes, ...) -- CPU_ReadMem(4 bytes @ 0x2009C094) - Data: 00 00 00 30  returns 0x00 (0004ms, 2010ms total)
T099C 002:571 JLINK_ReadMem (0x2009C098, 0x0004 Bytes, ...) -- CPU_ReadMem(4 bytes @ 0x2009C098) - Data: 00 00 00 00  returns 0x00 (0005ms, 2015ms total)
T099C 002:604 JLINK_ReadMem (0x40024000, 0x0004 Bytes, ...) -- CPU_ReadMem(4 bytes @ 0x40024000) - Data: 00 00 00 00  returns 0x00 (0009ms, 2024ms total)
T099C 002:613 JLINK_ReadMem (0x40024008, 0x0008 Bytes, ...) -- CPU_ReadMem(8 bytes @ 0x40024008) - Data: 11 00 00 00 08 00 00 00  returns 0x00 (0009ms, 2033ms total)
T099C 002:622 JLINK_ReadMem (0x40024010, 0x0004 Bytes, ...) -- CPU_ReadMem(4 bytes @ 0x40024010) - Data: FF 00 00 00  returns 0x00 (0005ms, 2038ms total)
T099C 002:627 JLINK_ReadMem (0x40024014, 0x0008 Bytes, ...) -- CPU_ReadMem(8 bytes @ 0x40024014) - Data: 32 3B 17 02 01 02 DF 07  returns 0x00 (0005ms, 2043ms total)
T099C 002:632 JLINK_ReadMem (0x4002401C, 0x0004 Bytes, ...) -- CPU_ReadMem(4 bytes @ 0x4002401C) - Data: E4 01 00 00  returns 0x00 (0004ms, 2047ms total)
T099C 002:637 JLINK_ReadMem (0x40024020, 0x0034 Bytes, ...) -- CPU_ReadMem(52 bytes @ 0x40024020) - Data: 32 00 00 00 3B 00 00 00 17 00 00 00 01 00 00 00 ...  returns 0x00 (0005ms, 2053ms total)
T099C 002:642 JLINK_ReadMem (0x40024054, 0x0004 Bytes, ...) -- CPU_ReadMem(4 bytes @ 0x40024054) - Data: 9D E4 31 A4  returns 0x00 (0005ms, 2058ms total)
T099C 002:647 JLINK_ReadMem (0x40024058, 0x0004 Bytes, ...) -- CPU_ReadMem(4 bytes @ 0x40024058) - Data: 00 00 00 00  returns 0x00 (0003ms, 2061ms total)
T099C 002:650 JLINK_ReadMem (0x4002405C, 0x0004 Bytes, ...) -- CPU_ReadMem(4 bytes @ 0x4002405C) - Data: 10 00 00 00  returns 0x00 (0004ms, 2065ms total)
T099C 002:655 JLINK_ReadMem (0x40024060, 0x001C Bytes, ...) -- CPU_ReadMem(28 bytes @ 0x40024060) - Data: 24 00 00 00 3E 00 00 00 0A 00 00 00 16 00 00 00 ...  returns 0x00 (0004ms, 2070ms total)
T099C 002:659 JLINK_ReadMem (0x4002407C, 0x0004 Bytes, ...) -- CPU_ReadMem(4 bytes @ 0x4002407C) - Data: BE 02 00 00  returns 0x00 (0004ms, 2074ms total)
T099C 002:687 JLINK_ReadMem (0x400FC000, 0x0004 Bytes, ...) -- CPU_ReadMem(4 bytes @ 0x400FC000) - Data: 3A 30 00 00  returns 0x00 (0005ms, 2079ms total)
T099C 002:692 JLINK_ReadMem (0x400FC080, 0x0004 Bytes, ...) -- CPU_ReadMem(4 bytes @ 0x400FC080) - Data: 00 00 00 00  returns 0x00 (0004ms, 2083ms total)
T099C 002:696 JLINK_ReadMem (0x400FC084, 0x0004 Bytes, ...) -- CPU_ReadMem(4 bytes @ 0x400FC084) - Data: 00 00 00 00  returns 0x00 (0008ms, 2091ms total)
T099C 002:704 JLINK_ReadMem (0x400FC088, 0x0004 Bytes, ...) -- CPU_ReadMem(4 bytes @ 0x400FC088) - Data: 00 00 00 00  returns 0x00 (0005ms, 2096ms total)
T099C 002:709 JLINK_ReadMem (0x400FC0A0, 0x0004 Bytes, ...) -- CPU_ReadMem(4 bytes @ 0x400FC0A0) - Data: 00 00 00 00  returns 0x00 (0004ms, 2100ms total)
T099C 002:713 JLINK_ReadMem (0x400FC0A4, 0x0004 Bytes, ...) -- CPU_ReadMem(4 bytes @ 0x400FC0A4) - Data: 00 00 00 00  returns 0x00 (0004ms, 2104ms total)
T099C 002:717 JLINK_ReadMem (0x400FC0A8, 0x0004 Bytes, ...) -- CPU_ReadMem(4 bytes @ 0x400FC0A8) - Data: 00 00 00 00  returns 0x00 (0004ms, 2108ms total)
T099C 002:721 JLINK_ReadMem (0x400FC0C0, 0x0004 Bytes, ...) -- CPU_ReadMem(4 bytes @ 0x400FC0C0) - Data: 00 00 00 00  returns 0x00 (0004ms, 2112ms total)
T099C 002:725 JLINK_ReadMem (0x400FC0C4, 0x0004 Bytes, ...) -- CPU_ReadMem(4 bytes @ 0x400FC0C4) - Data: DE 87 28 04  returns 0x00 (0004ms, 2116ms total)
T099C 002:729 JLINK_ReadMem (0x400FC104, 0x0010 Bytes, ...) -- CPU_ReadMem(16 bytes @ 0x400FC104) - Data: 00 00 00 00 00 00 00 00 00 00 00 00 00 00 00 00  returns 0x00 (0003ms, 2119ms total)
T099C 002:732 JLINK_ReadMem (0x400FC114, 0x0004 Bytes, ...) -- CPU_ReadMem(4 bytes @ 0x400FC114) - Data: 00 00 00 00  returns 0x00 (0003ms, 2122ms total)
T099C 002:736 JLINK_ReadMem (0x400FC140, 0x0004 Bytes, ...) -- CPU_ReadMem(4 bytes @ 0x400FC140) - Data: 00 00 00 00  returns 0x00 (0003ms, 2126ms total)
T099C 002:739 JLINK_ReadMem (0x400FC148, 0x0004 Bytes, ...) -- CPU_ReadMem(4 bytes @ 0x400FC148) - Data: 00 00 00 00  returns 0x00 (0003ms, 2129ms total)
T099C 002:742 JLINK_ReadMem (0x400FC14C, 0x0004 Bytes, ...) -- CPU_ReadMem(4 bytes @ 0x400FC14C) - Data: 00 00 00 00  returns 0x00 (0004ms, 2133ms total)
T099C 002:746 JLINK_ReadMem (0x400FC180, 0x0004 Bytes, ...) -- CPU_ReadMem(4 bytes @ 0x400FC180) - Data: 1B 00 00 00  returns 0x00 (0003ms, 2136ms total)
T099C 002:749 JLINK_ReadMem (0x400FC1A0, 0x0004 Bytes, ...) -- CPU_ReadMem(4 bytes @ 0x400FC1A0) - Data: 00 00 00 00  returns 0x00 (0003ms, 2139ms total)
T099C 002:752 JLINK_ReadMem (0x400FC1A8, 0x0004 Bytes, ...) -- CPU_ReadMem(4 bytes @ 0x400FC1A8) - Data: 00 00 0C 00  returns 0x00 (0004ms, 2143ms total)
T099C 002:756 JLINK_ReadMem (0x400FC1AC, 0x0004 Bytes, ...) -- CPU_ReadMem(4 bytes @ 0x400FC1AC) - Data: 00 00 00 00  returns 0x00 (0006ms, 2149ms total)
T099C 002:762 JLINK_ReadMem (0x400FC1C0, 0x0008 Bytes, ...) -- CPU_ReadMem(8 bytes @ 0x400FC1C0) - Data: 00 00 00 80 00 00 00 00  returns 0x00 (0004ms, 2153ms total)
T099C 002:766 JLINK_ReadMem (0x400FC1C8, 0x0004 Bytes, ...) -- CPU_ReadMem(4 bytes @ 0x400FC1C8) - Data: 00 00 00 00  returns 0x00 (0004ms, 2157ms total)
T099C 003:716 JLINK_ReadMem (0x10000040, 0x00AE Bytes, ...) -- CPU_ReadMem(192 bytes @ 0x10000040) -- Updating C cache (192 bytes @ 0x10000040) -- Read from C cache (174 bytes @ 0x10000040) - Data: 0E 30 70 47 70 B5 60 4C 00 25 4C 44 36 20 65 61 ...  returns 0x00 (0025ms, 2182ms total)
T02AC 005:009 JLINK_SetBPEx(Addr = 0x00000504, Type = 0xFFFFFFF2)  returns 0x00000001 (0017ms, 2199ms total)
T02AC 005:026 JLINK_SetBPEx(Addr = 0x00000612, Type = 0xFFFFFFF2)  returns 0x00000002 (0003ms, 2202ms total)
T02AC 005:029 JLINK_SetBPEx(Addr = 0x000005E8, Type = 0xFFFFFFF2)  returns 0x00000003 (0003ms, 2205ms total)
T02AC 005:032 JLINK_SetBPEx(Addr = 0x000003F6, Type = 0xFFFFFFF2)  returns 0x00000004 (0003ms, 2208ms total)
T02AC 005:035 JLINK_Go() -- CPU_WriteMem(4 bytes @ 0xE0002008) -- CPU_WriteMem(4 bytes @ 0xE000200C) -- CPU_WriteMem(4 bytes @ 0xE0002010) -- CPU_WriteMem(4 bytes @ 0xE0002014) -- CPU_WriteMem(4 bytes @ 0xE0002018) -- CPU_WriteMem(4 bytes @ 0xE000201C) -- CPU_WriteMem(4 bytes @ 0xE0001004) (0035ms, 2243ms total)
T02AC 005:172 JLINK_IsHalted() -- CPU_ReadMem(4 bytes @ 0x400FC040)  returns TRUE (0023ms, 2267ms total)
T02AC 005:195 JLINK_Halt()  returns 0x00 (0001ms, 2245ms total)
T02AC 005:196 JLINK_IsHalted()  returns TRUE (0002ms, 2247ms total)
T02AC 005:198 JLINK_IsHalted()  returns TRUE (0001ms, 2246ms total)
T02AC 005:199 JLINK_IsHalted()  returns TRUE (0000ms, 2245ms total)
T02AC 005:200 JLINK_ReadReg(R15 (PC))  returns 0x00000504 (0000ms, 2245ms total)
T02AC 005:201 JLINK_ReadReg(XPSR)  returns 0x21000000 (0000ms, 2246ms total)
T02AC 005:201 JLINK_ClrBPEx(BPHandle = 0x00000001)  returns 0x00 (0001ms, 2247ms total)
T02AC 005:202 JLINK_ClrBPEx(BPHandle = 0x00000002)  returns 0x00 (0000ms, 2247ms total)
T02AC 005:202 JLINK_ClrBPEx(BPHandle = 0x00000003)  returns 0x00 (0001ms, 2248ms total)
T02AC 005:203 JLINK_ClrBPEx(BPHandle = 0x00000004)  returns 0x00 (0000ms, 2248ms total)
T02AC 005:203 JLINK_ReadMemU32(0xE000ED30, 0x0001 Items, ...) -- CPU_ReadMem(4 bytes @ 0xE000ED30) - Data: 03 00 00 00  returns 0x01 (0005ms, 2253ms total)
T02AC 005:208 JLINK_ReadMemU32(0xE0001028, 0x0001 Items, ...) -- CPU_ReadMem(4 bytes @ 0xE0001028) - Data: 00 00 00 00  returns 0x01 (0006ms, 2259ms total)
T02AC 005:214 JLINK_ReadMemU32(0xE0001038, 0x0001 Items, ...) -- CPU_ReadMem(4 bytes @ 0xE0001038) - Data: 00 02 00 00  returns 0x01 (0003ms, 2262ms total)
T02AC 005:218 JLINK_ReadMemU32(0xE0001048, 0x0001 Items, ...) -- CPU_ReadMem(4 bytes @ 0xE0001048) - Data: 00 00 00 00  returns 0x01 (0003ms, 2266ms total)
T02AC 005:222 JLINK_ReadMemU32(0xE0001058, 0x0001 Items, ...) -- CPU_ReadMem(4 bytes @ 0xE0001058) - Data: 00 00 00 01  returns 0x01 (0004ms, 2271ms total)
T02AC 005:226 JLINK_ReadReg(R0)  returns 0x10000170 (0002ms, 2273ms total)
T02AC 005:228 JLINK_ReadReg(R1)  returns 0x10000170 (0000ms, 2273ms total)
T02AC 005:228 JLINK_ReadReg(R2)  returns 0x10000170 (0001ms, 2274ms total)
T02AC 005:229 JLINK_ReadReg(R3)  returns 0x10000170 (0000ms, 2274ms total)
T02AC 005:229 JLINK_ReadReg(R4)  returns 0x00000000 (0001ms, 2275ms total)
T02AC 005:230 JLINK_ReadReg(R5)  returns 0x10000110 (0001ms, 2276ms total)
T02AC 005:231 JLINK_ReadReg(R6)  returns 0x00000000 (0001ms, 2277ms total)
T02AC 005:232 JLINK_ReadReg(R7)  returns 0x00000000 (0000ms, 2277ms total)
T02AC 005:232 JLINK_ReadReg(R8)  returns 0x00000000 (0001ms, 2278ms total)
T02AC 005:233 JLINK_ReadReg(R9)  returns 0x100001DC (0000ms, 2278ms total)
T02AC 005:233 JLINK_ReadReg(R10)  returns 0x000038F4 (0000ms, 2278ms total)
T02AC 005:235 JLINK_ReadReg(R11)  returns 0x00000000 (0001ms, 2279ms total)
T02AC 005:236 JLINK_ReadReg(R12)  returns 0x10000150 (0001ms, 2280ms total)
T02AC 005:237 JLINK_ReadReg(R13 (SP))  returns 0x10000370 (0000ms, 2280ms total)
T02AC 005:238 JLINK_ReadReg(R14)  returns 0x00000157 (0000ms, 2281ms total)
T02AC 005:238 JLINK_ReadReg(R15 (PC))  returns 0x00000504 (0001ms, 2282ms total)
T02AC 005:239 JLINK_ReadReg(XPSR)  returns 0x21000000 (0000ms, 2282ms total)
T02AC 005:239 JLINK_ReadReg(MSP)  returns 0x10000370 (0001ms, 2283ms total)
T02AC 005:240 JLINK_ReadReg(PSP)  returns 0x10000FE0 (0000ms, 2283ms total)
T02AC 005:240 JLINK_ReadReg(CFBP)  returns 0x00000000 (0001ms, 2284ms total)
T099C 005:241 JLINK_ReadMem (0x00000000, 0x0004 Bytes, ...) -- CPU_ReadMem(64 bytes @ 0x00000000) -- Updating C cache (64 bytes @ 0x00000000) -- Read from C cache (4 bytes @ 0x00000000) - Data: 70 03 00 10  returns 0x00 (0006ms, 2290ms total)
T099C 005:247 JLINK_ReadMemU32(0xE0001004, 0x0001 Items, ...) -- CPU_ReadMem(4 bytes @ 0xE0001004) - Data: 2D 1A 00 00  returns 0x01 (0005ms, 2295ms total)
T099C 005:252 JLINK_ReadMem (0x10000040, 0x00AE Bytes, ...) -- CPU_ReadMem(192 bytes @ 0x10000040) -- Updating C cache (192 bytes @ 0x10000040) -- Read from C cache (174 bytes @ 0x10000040) - Data: 00 00 00 00 00 00 00 00 00 00 00 00 00 00 00 00 ...  returns 0x00 (0008ms, 2303ms total)
T099C 005:263 JLINK_ReadMem (0x50004000, 0x0004 Bytes, ...) -- CPU_ReadMem(4 bytes @ 0x50004000) - Data: 00 00 00 00  returns 0x00 (0006ms, 2310ms total)
T099C 005:270 JLINK_ReadMem (0x50004004, 0x0004 Bytes, ...) -- CPU_ReadMem(4 bytes @ 0x50004004) - Data: 00 00 00 00  returns 0x00 (0002ms, 2313ms total)
T099C 005:272 JLINK_ReadMem (0x5000400C, 0x0004 Bytes, ...) -- CPU_ReadMem(4 bytes @ 0x5000400C) - Data: 00 00 00 00  returns 0x00 (0003ms, 2316ms total)
T099C 005:275 JLINK_ReadMem (0x50004014, 0x0008 Bytes, ...) -- CPU_ReadMem(8 bytes @ 0x50004014) - Data: 00 00 00 00 00 00 00 00  returns 0x00 (0007ms, 2323ms total)
T099C 005:282 JLINK_ReadMem (0x5000401C, 0x0004 Bytes, ...) -- CPU_ReadMem(4 bytes @ 0x5000401C) - Data: 00 00 00 00  returns 0x00 (0006ms, 2329ms total)
T099C 005:288 JLINK_ReadMem (0x50004020, 0x0014 Bytes, ...) -- CPU_ReadMem(20 bytes @ 0x50004020) - Data: 00 00 00 00 00 00 00 00 00 00 00 00 00 00 00 00 ...  returns 0x00 (0004ms, 2333ms total)
T099C 005:292 JLINK_ReadMem (0x50004034, 0x0004 Bytes, ...) -- CPU_ReadMem(4 bytes @ 0x50004034) - Data: 00 00 00 00  returns 0x00 (0003ms, 2336ms total)
T099C 005:295 JLINK_ReadMem (0x50004100, 0x0004 Bytes, ...) -- CPU_ReadMem(4 bytes @ 0x50004100) - Data: 00 00 00 00  returns 0x00 (0004ms, 2340ms total)
T099C 005:299 JLINK_ReadMem (0x50004104, 0x0004 Bytes, ...) -- CPU_ReadMem(4 bytes @ 0x50004104) - Data: 00 00 00 00  returns 0x00 (0004ms, 2344ms total)
T099C 005:303 JLINK_ReadMem (0x50004108, 0x0004 Bytes, ...) -- CPU_ReadMem(4 bytes @ 0x50004108) - Data: 00 00 00 00  returns 0x00 (0003ms, 2347ms total)
T099C 005:307 JLINK_ReadMem (0x5000410C, 0x0004 Bytes, ...) -- CPU_ReadMem(4 bytes @ 0x5000410C) - Data: 00 00 00 00  returns 0x00 (0002ms, 2350ms total)
T099C 005:309 JLINK_ReadMem (0x50004110, 0x0004 Bytes, ...) -- CPU_ReadMem(4 bytes @ 0x50004110) - Data: 00 00 00 00  returns 0x00 (0004ms, 2354ms total)
T099C 005:313 JLINK_ReadMem (0x50004120, 0x0004 Bytes, ...) -- CPU_ReadMem(4 bytes @ 0x50004120) - Data: 00 00 00 00  returns 0x00 (0004ms, 2358ms total)
T099C 005:317 JLINK_ReadMem (0x50004124, 0x0004 Bytes, ...) -- CPU_ReadMem(4 bytes @ 0x50004124) - Data: 00 00 00 00  returns 0x00 (0005ms, 2363ms total)
T099C 005:322 JLINK_ReadMem (0x50004128, 0x0004 Bytes, ...) -- CPU_ReadMem(4 bytes @ 0x50004128) - Data: 00 00 00 00  returns 0x00 (0005ms, 2368ms total)
T099C 005:327 JLINK_ReadMem (0x5000412C, 0x0004 Bytes, ...) -- CPU_ReadMem(4 bytes @ 0x5000412C) - Data: 00 00 00 00  returns 0x00 (0005ms, 2373ms total)
T099C 005:333 JLINK_ReadMem (0x50004130, 0x0004 Bytes, ...) -- CPU_ReadMem(4 bytes @ 0x50004130) - Data: 00 00 00 00  returns 0x00 (0005ms, 2379ms total)
T099C 005:338 JLINK_ReadMem (0x50004140, 0x0004 Bytes, ...) -- CPU_ReadMem(4 bytes @ 0x50004140) - Data: 00 00 00 00  returns 0x00 (0006ms, 2385ms total)
T099C 005:345 JLINK_ReadMem (0x50004144, 0x0004 Bytes, ...) -- CPU_ReadMem(4 bytes @ 0x50004144) - Data: 00 00 00 00  returns 0x00 (0004ms, 2390ms total)
T099C 005:349 JLINK_ReadMem (0x50004148, 0x0004 Bytes, ...) -- CPU_ReadMem(4 bytes @ 0x50004148) - Data: 00 00 00 00  returns 0x00 (0004ms, 2394ms total)
T099C 005:353 JLINK_ReadMem (0x5000414C, 0x0004 Bytes, ...) -- CPU_ReadMem(4 bytes @ 0x5000414C) - Data: 00 00 00 00  returns 0x00 (0003ms, 2397ms total)
T099C 005:356 JLINK_ReadMem (0x50004150, 0x0004 Bytes, ...) -- CPU_ReadMem(4 bytes @ 0x50004150) - Data: 00 00 00 00  returns 0x00 (0002ms, 2399ms total)
T099C 005:358 JLINK_ReadMem (0x50004160, 0x0004 Bytes, ...) -- CPU_ReadMem(4 bytes @ 0x50004160) - Data: 00 00 00 00  returns 0x00 (0004ms, 2403ms total)
T099C 005:362 JLINK_ReadMem (0x50004164, 0x0004 Bytes, ...) -- CPU_ReadMem(4 bytes @ 0x50004164) - Data: 00 00 00 00  returns 0x00 (0005ms, 2408ms total)
T099C 005:367 JLINK_ReadMem (0x50004168, 0x0004 Bytes, ...) -- CPU_ReadMem(4 bytes @ 0x50004168) - Data: 00 00 00 00  returns 0x00 (0004ms, 2412ms total)
T099C 005:371 JLINK_ReadMem (0x5000416C, 0x0004 Bytes, ...) -- CPU_ReadMem(4 bytes @ 0x5000416C) - Data: 00 00 00 00  returns 0x00 (0004ms, 2416ms total)
T099C 005:375 JLINK_ReadMem (0x50004170, 0x0004 Bytes, ...) -- CPU_ReadMem(4 bytes @ 0x50004170) - Data: 00 00 00 00  returns 0x00 (0005ms, 2421ms total)
T099C 005:381 JLINK_ReadMem (0x50004180, 0x0004 Bytes, ...) -- CPU_ReadMem(4 bytes @ 0x50004180) - Data: 00 00 00 00  returns 0x00 (0003ms, 2425ms total)
T099C 005:384 JLINK_ReadMem (0x50004184, 0x0004 Bytes, ...) -- CPU_ReadMem(4 bytes @ 0x50004184) - Data: 00 00 00 00  returns 0x00 (0004ms, 2429ms total)
T099C 005:388 JLINK_ReadMem (0x50004188, 0x0004 Bytes, ...) -- CPU_ReadMem(4 bytes @ 0x50004188) - Data: 00 00 00 00  returns 0x00 (0005ms, 2434ms total)
T099C 005:393 JLINK_ReadMem (0x5000418C, 0x0004 Bytes, ...) -- CPU_ReadMem(4 bytes @ 0x5000418C) - Data: 00 00 00 00  returns 0x00 (0007ms, 2441ms total)
T099C 005:401 JLINK_ReadMem (0x50004190, 0x0004 Bytes, ...) -- CPU_ReadMem(4 bytes @ 0x50004190) - Data: 00 00 00 00  returns 0x00 (0005ms, 2447ms total)
T099C 005:406 JLINK_ReadMem (0x500041A0, 0x0004 Bytes, ...) -- CPU_ReadMem(4 bytes @ 0x500041A0) - Data: 00 00 00 00  returns 0x00 (0012ms, 2459ms total)
T099C 005:418 JLINK_ReadMem (0x500041A4, 0x0004 Bytes, ...) -- CPU_ReadMem(4 bytes @ 0x500041A4) - Data: 00 00 00 00  returns 0x00 (0008ms, 2467ms total)
T099C 005:426 JLINK_ReadMem (0x500041A8, 0x0004 Bytes, ...) -- CPU_ReadMem(4 bytes @ 0x500041A8) - Data: 00 00 00 00  returns 0x00 (0005ms, 2472ms total)
T099C 005:431 JLINK_ReadMem (0x500041AC, 0x0004 Bytes, ...) -- CPU_ReadMem(4 bytes @ 0x500041AC) - Data: 00 00 00 00  returns 0x00 (0004ms, 2476ms total)
T099C 005:436 JLINK_ReadMem (0x500041B0, 0x0004 Bytes, ...) -- CPU_ReadMem(4 bytes @ 0x500041B0) - Data: 00 00 00 00  returns 0x00 (0003ms, 2480ms total)
T099C 005:439 JLINK_ReadMem (0x500041C0, 0x0004 Bytes, ...) -- CPU_ReadMem(4 bytes @ 0x500041C0) - Data: 00 00 00 00  returns 0x00 (0004ms, 2484ms total)
T099C 005:443 JLINK_ReadMem (0x500041C4, 0x0004 Bytes, ...) -- CPU_ReadMem(4 bytes @ 0x500041C4) - Data: 00 00 00 00  returns 0x00 (0005ms, 2489ms total)
T099C 005:449 JLINK_ReadMem (0x500041C8, 0x0004 Bytes, ...) -- CPU_ReadMem(4 bytes @ 0x500041C8) - Data: 00 00 00 00  returns 0x00 (0004ms, 2494ms total)
T099C 005:453 JLINK_ReadMem (0x500041CC, 0x0004 Bytes, ...) -- CPU_ReadMem(4 bytes @ 0x500041CC) - Data: 00 00 00 00  returns 0x00 (0004ms, 2498ms total)
T099C 005:458 JLINK_ReadMem (0x500041D0, 0x0004 Bytes, ...) -- CPU_ReadMem(4 bytes @ 0x500041D0) - Data: 00 00 00 00  returns 0x00 (0003ms, 2502ms total)
T099C 005:461 JLINK_ReadMem (0x500041E0, 0x0004 Bytes, ...) -- CPU_ReadMem(4 bytes @ 0x500041E0) - Data: 00 00 00 00  returns 0x00 (0006ms, 2508ms total)
T099C 005:467 JLINK_ReadMem (0x500041E4, 0x0004 Bytes, ...) -- CPU_ReadMem(4 bytes @ 0x500041E4) - Data: 00 00 00 00  returns 0x00 (0006ms, 2514ms total)
T099C 005:473 JLINK_ReadMem (0x500041E8, 0x0004 Bytes, ...) -- CPU_ReadMem(4 bytes @ 0x500041E8) - Data: 00 00 00 00  returns 0x00 (0005ms, 2519ms total)
T099C 005:478 JLINK_ReadMem (0x500041EC, 0x0004 Bytes, ...) -- CPU_ReadMem(4 bytes @ 0x500041EC) - Data: 00 00 00 00  returns 0x00 (0005ms, 2524ms total)
T099C 005:483 JLINK_ReadMem (0x500041F0, 0x0004 Bytes, ...) -- CPU_ReadMem(4 bytes @ 0x500041F0) - Data: 00 00 00 00  returns 0x00 (0003ms, 2527ms total)
T099C 005:487 JLINK_ReadMem (0x40024000, 0x0004 Bytes, ...) -- CPU_ReadMem(4 bytes @ 0x40024000) - Data: 00 00 00 00  returns 0x00 (0006ms, 2533ms total)
T099C 005:493 JLINK_ReadMem (0x40024008, 0x0008 Bytes, ...) -- CPU_ReadMem(8 bytes @ 0x40024008) - Data: 11 00 00 00 08 00 00 00  returns 0x00 (0005ms, 2538ms total)
T099C 005:498 JLINK_ReadMem (0x40024010, 0x0004 Bytes, ...) -- CPU_ReadMem(4 bytes @ 0x40024010) - Data: FF 00 00 00  returns 0x00 (0007ms, 2545ms total)
T099C 005:505 JLINK_ReadMem (0x40024014, 0x0008 Bytes, ...) -- CPU_ReadMem(8 bytes @ 0x40024014) - Data: 35 3B 17 02 01 02 DF 07  returns 0x00 (0004ms, 2549ms total)
T099C 005:509 JLINK_ReadMem (0x4002401C, 0x0004 Bytes, ...) -- CPU_ReadMem(4 bytes @ 0x4002401C) - Data: E4 01 00 00  returns 0x00 (0006ms, 2555ms total)
T099C 005:515 JLINK_ReadMem (0x40024020, 0x0034 Bytes, ...) -- CPU_ReadMem(52 bytes @ 0x40024020) - Data: 35 00 00 00 3B 00 00 00 17 00 00 00 01 00 00 00 ...  returns 0x00 (0007ms, 2562ms total)
T099C 005:522 JLINK_ReadMem (0x40024054, 0x0004 Bytes, ...) -- CPU_ReadMem(4 bytes @ 0x40024054) - Data: 9D E4 31 A4  returns 0x00 (0005ms, 2567ms total)
T099C 005:527 JLINK_ReadMem (0x40024058, 0x0004 Bytes, ...) -- CPU_ReadMem(4 bytes @ 0x40024058) - Data: 00 00 00 00  returns 0x00 (0014ms, 2581ms total)
T099C 005:541 JLINK_ReadMem (0x4002405C, 0x0004 Bytes, ...) -- CPU_ReadMem(4 bytes @ 0x4002405C) - Data: 10 00 00 00  returns 0x00 (0006ms, 2587ms total)
T099C 005:548 JLINK_ReadMem (0x40024060, 0x001C Bytes, ...) -- CPU_ReadMem(28 bytes @ 0x40024060) - Data: 24 00 00 00 3E 00 00 00 0A 00 00 00 16 00 00 00 ...  returns 0x00 (0008ms, 2596ms total)
T099C 005:556 JLINK_ReadMem (0x4002407C, 0x0004 Bytes, ...) -- CPU_ReadMem(4 bytes @ 0x4002407C) - Data: BE 02 00 00  returns 0x00 (0005ms, 2601ms total)
T099C 005:563 JLINK_ReadMem (0x400FC000, 0x0004 Bytes, ...) -- CPU_ReadMem(4 bytes @ 0x400FC000) - Data: 3A 40 00 00  returns 0x00 (0004ms, 2605ms total)
T099C 005:567 JLINK_ReadMem (0x400FC080, 0x0004 Bytes, ...) -- CPU_ReadMem(4 bytes @ 0x400FC080) - Data: 03 00 00 00  returns 0x00 (0004ms, 2609ms total)
T099C 005:571 JLINK_ReadMem (0x400FC084, 0x0004 Bytes, ...) -- CPU_ReadMem(4 bytes @ 0x400FC084) - Data: 4A 00 05 00  returns 0x00 (0006ms, 2615ms total)
T099C 005:577 JLINK_ReadMem (0x400FC088, 0x0004 Bytes, ...) -- CPU_ReadMem(4 bytes @ 0x400FC088) - Data: 4A 00 05 07  returns 0x00 (0008ms, 2623ms total)
T099C 005:585 JLINK_ReadMem (0x400FC0A0, 0x0004 Bytes, ...) -- CPU_ReadMem(4 bytes @ 0x400FC0A0) - Data: 03 00 00 00  returns 0x00 (0005ms, 2628ms total)
T099C 005:590 JLINK_ReadMem (0x400FC0A4, 0x0004 Bytes, ...) -- CPU_ReadMem(4 bytes @ 0x400FC0A4) - Data: 23 00 00 00  returns 0x00 (0004ms, 2632ms total)
T099C 005:594 JLINK_ReadMem (0x400FC0A8, 0x0004 Bytes, ...) -- CPU_ReadMem(4 bytes @ 0x400FC0A8) - Data: 23 07 00 00  returns 0x00 (0012ms, 2644ms total)
T099C 005:606 JLINK_ReadMem (0x400FC0C0, 0x0004 Bytes, ...) -- CPU_ReadMem(4 bytes @ 0x400FC0C0) - Data: 00 00 00 00  returns 0x00 (0005ms, 2649ms total)
T099C 005:612 JLINK_ReadMem (0x400FC0C4, 0x0004 Bytes, ...) -- CPU_ReadMem(4 bytes @ 0x400FC0C4) - Data: DE 87 28 04  returns 0x00 (0007ms, 2657ms total)
T099C 005:619 JLINK_ReadMem (0x400FC104, 0x0010 Bytes, ...) -- CPU_ReadMem(16 bytes @ 0x400FC104) - Data: 04 00 00 00 00 00 00 00 01 00 00 00 00 00 00 00  returns 0x00 (0010ms, 2667ms total)
T099C 005:629 JLINK_ReadMem (0x400FC114, 0x0004 Bytes, ...) -- CPU_ReadMem(4 bytes @ 0x400FC114) - Data: 00 00 00 00  returns 0x00 (0009ms, 2676ms total)
T099C 005:638 JLINK_ReadMem (0x400FC140, 0x0004 Bytes, ...) -- CPU_ReadMem(4 bytes @ 0x400FC140) - Data: 00 00 00 00  returns 0x00 (0007ms, 2683ms total)
T099C 005:645 JLINK_ReadMem (0x400FC148, 0x0004 Bytes, ...) -- CPU_ReadMem(4 bytes @ 0x400FC148) - Data: 00 00 00 00  returns 0x00 (0005ms, 2688ms total)
T099C 005:650 JLINK_ReadMem (0x400FC14C, 0x0004 Bytes, ...) -- CPU_ReadMem(4 bytes @ 0x400FC14C) - Data: 00 00 00 00  returns 0x00 (0004ms, 2692ms total)
T099C 005:655 JLINK_ReadMem (0x400FC180, 0x0004 Bytes, ...) -- CPU_ReadMem(4 bytes @ 0x400FC180) - Data: 1B 00 00 00  returns 0x00 (0009ms, 2702ms total)
T099C 005:665 JLINK_ReadMem (0x400FC1A0, 0x0004 Bytes, ...) -- CPU_ReadMem(4 bytes @ 0x400FC1A0) - Data: 60 00 00 00  returns 0x00 (0005ms, 2708ms total)
T099C 005:670 JLINK_ReadMem (0x400FC1A8, 0x0004 Bytes, ...) -- CPU_ReadMem(4 bytes @ 0x400FC1A8) - Data: 00 00 0C 00  returns 0x00 (0005ms, 2713ms total)
T099C 005:675 JLINK_ReadMem (0x400FC1AC, 0x0004 Bytes, ...) -- CPU_ReadMem(4 bytes @ 0x400FC1AC) - Data: 00 00 00 00  returns 0x00 (0009ms, 2722ms total)
T099C 005:684 JLINK_ReadMem (0x400FC1C0, 0x0008 Bytes, ...) -- CPU_ReadMem(8 bytes @ 0x400FC1C0) - Data: 00 00 00 80 00 00 00 00  returns 0x00 (0005ms, 2727ms total)
T099C 005:689 JLINK_ReadMem (0x400FC1C8, 0x0004 Bytes, ...) -- CPU_ReadMem(4 bytes @ 0x400FC1C8) - Data: 00 00 00 00  returns 0x00 (0012ms, 2739ms total)
T099C 005:701 JLINK_ReadMem (0x2009C000, 0x0004 Bytes, ...) -- CPU_ReadMem(4 bytes @ 0x2009C000) - Data: 00 00 00 00  returns 0x00 (0005ms, 2744ms total)
T099C 005:706 JLINK_ReadMem (0x2009C010, 0x0004 Bytes, ...) -- CPU_ReadMem(4 bytes @ 0x2009C010) - Data: 00 00 00 00  returns 0x00 (0009ms, 2753ms total)
T099C 005:715 JLINK_ReadMem (0x2009C014, 0x0004 Bytes, ...) -- CPU_ReadMem(4 bytes @ 0x2009C014) - Data: FF 8F FF 07  returns 0x00 (0007ms, 2760ms total)
T099C 005:722 JLINK_ReadMem (0x2009C018, 0x0004 Bytes, ...) -- CPU_ReadMem(4 bytes @ 0x2009C018) - Data: 00 00 00 00  returns 0x00 (0008ms, 2768ms total)
T099C 005:730 JLINK_ReadMem (0x2009C020, 0x0004 Bytes, ...) -- CPU_ReadMem(4 bytes @ 0x2009C020) - Data: 00 00 00 00  returns 0x00 (0007ms, 2775ms total)
T099C 005:737 JLINK_ReadMem (0x2009C030, 0x0004 Bytes, ...) -- CPU_ReadMem(4 bytes @ 0x2009C030) - Data: 00 00 00 00  returns 0x00 (0009ms, 2784ms total)
T099C 005:746 JLINK_ReadMem (0x2009C034, 0x0004 Bytes, ...) -- CPU_ReadMem(4 bytes @ 0x2009C034) - Data: 13 C7 FF FF  returns 0x00 (0009ms, 2793ms total)
T099C 005:756 JLINK_ReadMem (0x2009C038, 0x0004 Bytes, ...) -- CPU_ReadMem(4 bytes @ 0x2009C038) - Data: 00 00 00 00  returns 0x00 (0006ms, 2800ms total)
T099C 005:762 JLINK_ReadMem (0x2009C040, 0x0004 Bytes, ...) -- CPU_ReadMem(4 bytes @ 0x2009C040) - Data: 00 00 00 00  returns 0x00 (0005ms, 2805ms total)
T099C 005:767 JLINK_ReadMem (0x2009C050, 0x0004 Bytes, ...) -- CPU_ReadMem(4 bytes @ 0x2009C050) - Data: 00 00 00 00  returns 0x00 (0006ms, 2811ms total)
T099C 005:773 JLINK_ReadMem (0x2009C054, 0x0004 Bytes, ...) -- CPU_ReadMem(4 bytes @ 0x2009C054) - Data: FF 3F 00 00  returns 0x00 (0008ms, 2819ms total)
T099C 005:781 JLINK_ReadMem (0x2009C058, 0x0004 Bytes, ...) -- CPU_ReadMem(4 bytes @ 0x2009C058) - Data: 00 00 00 00  returns 0x00 (0005ms, 2824ms total)
T099C 005:786 JLINK_ReadMem (0x2009C060, 0x0004 Bytes, ...) -- CPU_ReadMem(4 bytes @ 0x2009C060) - Data: 00 00 00 00  returns 0x00 (0005ms, 2829ms total)
T099C 005:791 JLINK_ReadMem (0x2009C070, 0x0004 Bytes, ...) -- CPU_ReadMem(4 bytes @ 0x2009C070) - Data: 00 00 00 00  returns 0x00 (0008ms, 2837ms total)
T099C 005:799 JLINK_ReadMem (0x2009C074, 0x0004 Bytes, ...) -- CPU_ReadMem(4 bytes @ 0x2009C074) - Data: 00 00 00 06  returns 0x00 (0007ms, 2844ms total)
T099C 005:806 JLINK_ReadMem (0x2009C078, 0x0004 Bytes, ...) -- CPU_ReadMem(4 bytes @ 0x2009C078) - Data: 00 00 00 00  returns 0x00 (0005ms, 2849ms total)
T099C 005:811 JLINK_ReadMem (0x2009C080, 0x0004 Bytes, ...) -- CPU_ReadMem(4 bytes @ 0x2009C080) - Data: 00 00 00 00  returns 0x00 (0006ms, 2855ms total)
T099C 005:817 JLINK_ReadMem (0x2009C090, 0x0004 Bytes, ...) -- CPU_ReadMem(4 bytes @ 0x2009C090) - Data: 00 00 00 00  returns 0x00 (0007ms, 2862ms total)
T099C 005:826 JLINK_ReadMem (0x2009C094, 0x0004 Bytes, ...) -- CPU_ReadMem(4 bytes @ 0x2009C094) - Data: 00 00 00 30  returns 0x00 (0010ms, 2874ms total)
T099C 005:836 JLINK_ReadMem (0x2009C098, 0x0004 Bytes, ...) -- CPU_ReadMem(4 bytes @ 0x2009C098) - Data: 00 00 00 00  returns 0x00 (0009ms, 2883ms total)
T099C 005:850 JLINK_ReadMem (0x00000504, 0x003C Bytes, ...) -- CPU_ReadMem(64 bytes @ 0x00000500) -- Updating C cache (64 bytes @ 0x00000500) -- Read from C cache (60 bytes @ 0x00000504) - Data: 86 B0 00 20 03 23 02 46 09 21 00 90 02 F0 AA F9 ...  returns 0x00 (0007ms, 2890ms total)
T02AC 022:813 JLINK_SetBPEx(Addr = 0x00000612, Type = 0xFFFFFFF2)  returns 0x00000005 (0008ms, 2899ms total)
T02AC 022:821 JLINK_SetBPEx(Addr = 0x000005E8, Type = 0xFFFFFFF2)  returns 0x00000006 (0001ms, 2900ms total)
T02AC 022:822 JLINK_SetBPEx(Addr = 0x000003F6, Type = 0xFFFFFFF2)  returns 0x00000007 (0000ms, 2900ms total)
T02AC 022:823 JLINK_Go() -- CPU_WriteMem(4 bytes @ 0xE0002008) -- CPU_WriteMem(4 bytes @ 0xE000200C) -- CPU_WriteMem(4 bytes @ 0xE0002010) -- CPU_WriteMem(4 bytes @ 0xE0002014) (0022ms, 2923ms total)
T02AC 022:945 JLINK_IsHalted()  returns FALSE (0013ms, 2936ms total)
T02AC 023:059 JLINK_IsHalted()  returns FALSE (0011ms, 2934ms total)
T02AC 023:171 JLINK_IsHalted()  returns FALSE (0017ms, 2940ms total)
T02AC 023:288 JLINK_IsHalted()  returns FALSE (0012ms, 2935ms total)
T02AC 023:400 JLINK_ReadMemU32(0xE0001004, 0x0001 Items, ...) -- CPU is running -- CPU_ReadMem(4 bytes @ 0xE0001004) - Data: 90 0A 63 03  returns 0x01 (0017ms, 2940ms total)
T099C 023:417 JLINK_ReadMem (0x10000040, 0x00AE Bytes, ...) -- CPU is running -- CPU_ReadMem(174 bytes @ 0x10000040) - Data: 00 00 00 00 00 00 00 00 00 00 00 00 00 00 00 00 ...  returns 0x00 (0008ms, 2948ms total)
T099C 023:426 JLINK_ReadMem (0x50004000, 0x0004 Bytes, ...) -- CPU is running -- CPU_ReadMem(4 bytes @ 0x50004000) - Data: 00 00 00 00  returns 0x00 (0004ms, 2952ms total)
T099C 023:430 JLINK_ReadMem (0x50004004, 0x0004 Bytes, ...) -- CPU is running -- CPU_ReadMem(4 bytes @ 0x50004004) - Data: 00 00 00 00  returns 0x00 (0003ms, 2955ms total)
T099C 023:434 JLINK_ReadMem (0x5000400C, 0x0004 Bytes, ...) -- CPU is running -- CPU_ReadMem(4 bytes @ 0x5000400C) - Data: 00 00 00 00  returns 0x00 (0004ms, 2960ms total)
T099C 023:438 JLINK_ReadMem (0x50004014, 0x0008 Bytes, ...) -- CPU is running -- CPU_ReadMem(8 bytes @ 0x50004014) - Data: 00 00 00 00 00 00 00 00  returns 0x00 (0004ms, 2964ms total)
T099C 023:442 JLINK_ReadMem (0x5000401C, 0x0004 Bytes, ...) -- CPU is running -- CPU_ReadMem(4 bytes @ 0x5000401C) - Data: 00 00 00 00  returns 0x00 (0003ms, 2967ms total)
T099C 023:445 JLINK_ReadMem (0x50004020, 0x0014 Bytes, ...) -- CPU is running -- CPU_ReadMem(20 bytes @ 0x50004020) - Data: 00 00 00 00 00 00 00 00 00 00 00 00 00 00 00 00 ...  returns 0x00 (0004ms, 2971ms total)
T099C 023:449 JLINK_ReadMem (0x50004034, 0x0004 Bytes, ...) -- CPU is running -- CPU_ReadMem(4 bytes @ 0x50004034) - Data: 00 00 00 00  returns 0x00 (0004ms, 2975ms total)
T099C 023:453 JLINK_ReadMem (0x50004100, 0x0004 Bytes, ...) -- CPU is running -- CPU_ReadMem(4 bytes @ 0x50004100) - Data: 00 00 00 00  returns 0x00 (0003ms, 2978ms total)
T099C 023:456 JLINK_ReadMem (0x50004104, 0x0004 Bytes, ...) -- CPU is running -- CPU_ReadMem(4 bytes @ 0x50004104) - Data: 00 00 00 00  returns 0x00 (0004ms, 2982ms total)
T099C 023:460 JLINK_ReadMem (0x50004108, 0x0004 Bytes, ...) -- CPU is running -- CPU_ReadMem(4 bytes @ 0x50004108) - Data: 00 00 00 00  returns 0x00 (0005ms, 2987ms total)
T099C 023:465 JLINK_ReadMem (0x5000410C, 0x0004 Bytes, ...) -- CPU is running -- CPU_ReadMem(4 bytes @ 0x5000410C) - Data: 00 00 00 00  returns 0x00 (0004ms, 2991ms total)
T099C 023:469 JLINK_ReadMem (0x50004110, 0x0004 Bytes, ...) -- CPU is running -- CPU_ReadMem(4 bytes @ 0x50004110) - Data: 00 00 00 00  returns 0x00 (0005ms, 2996ms total)
T099C 023:474 JLINK_ReadMem (0x50004120, 0x0004 Bytes, ...) -- CPU is running -- CPU_ReadMem(4 bytes @ 0x50004120) - Data: 00 00 00 00  returns 0x00 (0006ms, 3002ms total)
